  can0  081   [5]  1D F2 03 00 00
  can0  080   [8]  1D 02 30 20 4A 92 24 49
  can0  000   [8]  00 00 00 00 00 00 00 00
  can0  060   [8]  01 00 00 00 00 00 00 00
  can0  4CA   [8]  00 01 01 00 00 00 00 00
  can0  080   [8]  1D 03 00 00 01 00 07 84
  can0  000   [8]  00 00 00 00 00 00 00 00
  can0  060   [8]  01 00 00 00 00 00 00 00
  can0  080   [8]  1D 04 78 78 00 00 D3 00
  can0  000   [8]  00 00 00 00 00 00 00 00
  can0  060   [8]  01 00 00 00 00 00 00 00
  can0  4CA   [8]  01 01 01 00 00 00 00 00
  can0  080   [8]  1D 05 00 00 00 00 00 00
  can0  000   [8]  00 00 00 00 00 00 00 00
  can0  060   [8]  01 00 00 00 00 00 00 00
  can0  4CA   [8]  02 01 01 00 00 00 00 00
  can0  080   [8]  1D 06 02 00 04 B7 02 00
  can0  000   [8]  00 00 00 00 00 00 00 00
  can0  060   [8]  01 00 00 00 00 00 00 00
  can0  080   [8]  1D 07 04 AE 06 AF 00 00
  can0  000   [8]  00 00 00 00 00 00 00 00
  can0  060   [8]  01 00 00 00 00 00 00 00
  can0  4CA   [8]  03 01 00 00 00 00 00 00
  can0  080   [8]  1D 08 00 00 19 19 00 00
  can0  000   [8]  00 00 00 00 00 00 00 00
  can0  060   [8]  01 00 00 00 00 00 00 00
  can0  4CA   [8]  04 01 00 00 00 00 00 00
  can0  080   [8]  1D 09 10 02 1B 02 0B 00
  can0  000   [8]  00 00 00 00 00 00 00 00
  can0  001   [5]  1D F7 05 00 00
  can0  060   [8]  01 00 00 00 00 00 00 00
  can0  081   [5]  1D F7 05 00 00
  can0  080   [8]  1D 0A 00 00 00 00 77 00
  can0  000   [8]  00 00 00 00 00 00 00 00
  can0  060   [8]  01 00 00 00 00 00 00 00
  can0  080   [8]  1D 01 20 00 00 81 7E 50
  can0  000   [8]  00 00 00 00 00 00 00 00
  can0  060   [8]  01 00 00 00 00 00 00 00
  can0  080   [8]  1D 02 30 20 4A 92 24 49
  can0  000   [8]  00 00 00 00 00 00 00 00
  can0  060   [8]  01 00 00 00 00 00 00 00
  can0  4CA   [8]  05 01 02 01 00 00 00 00
  can0  080   [8]  1D 03 00 00 01 00 07 84
  can0  000   [8]  00 00 00 00 00 00 00 00
  can0  060   [8]  01 00 00 00 00 00 00 00
  can0  080   [8]  1D 04 78 78 00 00 D3 00
  can0  000   [8]  00 00 00 00 00 00 00 00
  can0  060   [8]  01 00 00 00 00 00 00 00
  can0  080   [8]  1D 05 00 00 00 00 00 00
  can0  000   [8]  00 00 00 00 00 00 00 00
  can0  060   [8]  01 00 00 00 00 00 00 00
  can0  3C9   [5]  00 30 61 1E 64
  can0  080   [8]  1D 06 02 00 04 B7 02 00
  can0  000   [8]  00 00 00 00 00 00 00 00
  can0  060   [8]  01 00 00 00 00 00 00 00
  can0  080   [8]  1D 07 04 AE 06 AF 00 00
  can0  000   [8]  00 00 00 00 00 00 00 00
  can0  060   [8]  01 00 00 00 00 00 00 00
  can0  001   [5]  1D F8 01 00 00
  can0  081   [5]  1D F8 01 00 00
  can0  080   [8]  1D 08 00 00 1B 1A 00 00
  can0  000   [8]  00 00 00 00 00 00 00 00
  can0  060   [8]  01 00 00 00 00 00 00 00
  can0  001   [5]  1D F7 03 00 00
  can0  081   [5]  1D F7 03 00 00
  can0  080   [8]  1D 09 10 02 1B 02 0B 00
  can0  000   [8]  00 00 00 00 00 00 00 00
  can0  060   [8]  01 00 00 00 00 00 00 00
  can0  001   [5]  1D F2 07 00 00
  can0  080   [8]  1D 0A 00 00 00 00 77 00
  can0  000   [8]  00 00 00 00 00 00 00 00
  can0  001   [5]  1D F7 05 00 00
  can0  081   [5]  1D F2 07 00 00
  can0  081   [5]  1D F7 05 00 00
  can0  060   [8]  01 00 00 00 00 00 00 00
  can0  080   [8]  1D 01 20 00 00 81 7E 50
  can0  000   [8]  00 00 00 00 00 00 00 00
  can0  060   [8]  01 00 00 00 00 00 00 00
  can0  001   [5]  1D F1 04 00 01
  can0  001   [5]  1D F1 00 00 00
  can0  081   [5]  1D F1 04 00 01
  can0  081   [5]  1D F1 00 00 00
  can0  080   [8]  1D 02 30 20 4A 92 24 49
  can0  000   [8]  00 00 00 00 00 00 00 00
  can0  060   [8]  01 00 00 00 00 00 00 00
  can0  080   [8]  1D 03 00 00 01 00 07 84
  can0  000   [8]  00 00 00 00 00 00 00 00
  can0  060   [8]  01 00 00 00 00 00 00 00
  can0  080   [8]  1D 04 78 78 00 00 D3 00
  can0  000   [8]  00 00 00 00 00 00 00 00
  can0  060   [8]  01 00 00 00 00 00 00 00
  can0  001   [5]  1D F9 01 00 00
  can0  081   [5]  1D F9 01 00 00
  can0  080   [8]  1D 05 00 00 00 00 00 00
  can0  000   [8]  00 00 00 00 00 00 00 00
  can0  060   [8]  01 00 00 00 00 00 00 00
  can0  001   [5]  1D F1 06 00 01
  can0  001   [5]  1D F2 03 00 00
  can0  081   [5]  1D F1 06 00 01
  can0  081   [5]  1D F2 03 00 00
  can0  080   [8]  1D 06 02 00 04 B7 02 00
  can0  000   [8]  00 00 00 00 00 00 00 00
  can0  060   [8]  01 00 00 00 00 00 00 00
  can0  080   [8]  1D 07 04 AE 06 AF 00 00
  can0  000   [8]  00 00 00 00 00 00 00 00
  can0  060   [8]  01 00 00 00 00 00 00 00
  can0  4CA   [8]  00 01 01 00 00 00 00 00
  can0  080   [8]  1D 08 00 00 19 19 00 00
  can0  000   [8]  00 00 00 00 00 00 00 00
  can0  060   [8]  01 00 00 00 00 00 00 00
  can0  4CA   [8]  01 01 01 00 00 00 00 00
  can0  080   [8]  1D 09 10 02 1B 02 0B 00
  can0  000   [8]  00 00 00 00 00 00 00 00
  can0  060   [8]  01 00 00 00 00 00 00 00
  can0  4CA   [8]  02 01 01 00 00 00 00 00
  can0  080   [8]  1D 0A 00 00 00 00 78 00
  can0  000   [8]  00 00 00 00 00 00 00 00
  can0  060   [8]  01 00 00 00 00 00 00 00
  can0  080   [8]  1D 01 20 00 00 81 7E 50
  can0  000   [8]  00 00 00 00 00 00 00 00
  can0  001   [5]  1D F7 05 00 00
  can0  060   [8]  01 00 00 00 00 00 00 00
  can0  081   [5]  1D F7 05 00 00
  can0  4CA   [8]  03 01 00 00 00 00 00 00
  can0  080   [8]  1D 02 30 20 4A 92 24 49
  can0  000   [8]  00 00 00 00 00 00 00 00
  can0  060   [8]  01 00 00 00 00 00 00 00
  can0  4CA   [8]  04 01 00 00 00 00 00 00
  can0  080   [8]  1D 03 00 00 01 00 07 81
  can0  000   [8]  00 00 00 00 00 00 00 00
  can0  060   [8]  01 00 00 00 00 00 00 00
  can0  080   [8]  1D 04 67 66 00 00 D3 00
  can0  000   [8]  00 00 00 00 00 00 00 00
  can0  060   [8]  01 00 00 00 00 00 00 00
  can0  080   [8]  1D 05 00 00 00 00 00 00
  can0  000   [8]  00 00 00 00 00 00 00 00
  can0  060   [8]  01 00 00 00 00 00 00 00
  can0  080   [8]  1D 06 02 00 04 B7 02 00
  can0  000   [8]  00 00 00 00 00 00 00 00
  can0  060   [8]  01 00 00 00 00 00 00 00
  can0  3C9   [5]  00 30 5F 1E 64
  can0  080   [8]  1D 07 04 AE 06 AF 00 00
  can0  000   [8]  00 00 00 00 00 00 00 00
  can0  060   [8]  01 00 00 00 00 00 00 00
  can0  4CA   [8]  05 01 02 01 00 00 00 00
  can0  080   [8]  1D 08 00 00 4E 4E 00 00
  can0  000   [8]  00 00 00 00 00 00 00 00
  can0  060   [8]  01 00 00 00 00 00 00 00
  can0  080   [8]  1D 09 10 02 1B 02 0B 00
  can0  000   [8]  00 00 00 00 00 00 00 00
  can0  060   [8]  01 00 00 00 00 00 00 00
  can0  080   [8]  1D 0A 00 00 00 00 5B 00
  can0  000   [8]  00 00 00 00 00 00 00 00
  can0  060   [8]  01 00 00 00 00 00 00 00
  can0  080   [8]  1D 01 20 00 00 81 7E 50
  can0  000   [8]  00 00 00 00 00 00 00 00
  can0  060   [8]  01 00 00 00 00 00 00 00
  can0  001   [5]  1D F8 01 00 00
  can0  081   [5]  1D F8 01 00 00
  can0  001   [5]  1D F7 05 00 00
  can0  000   [8]  00 00 00 00 00 00 00 00
  can0  001   [5]  1D F7 03 00 00
  can0  000   [8]  00 00 00 00 00 00 00 00
  can0  000   [8]  00 00 00 00 00 00 00 00
  can0  001   [5]  1D F2 07 00 00
  can0  000   [8]  00 00 00 00 00 00 00 00
  can0  001   [5]  1D F1 04 00 01
  can0  001   [5]  1D F1 00 00 00
  can0  000   [8]  00 00 00 00 00 00 00 00
  can0  000   [8]  00 00 00 00 00 00 00 00
  can0  000   [8]  00 00 00 00 00 00 00 00
  can0  001   [5]  1D F9 01 00 00
  can0  000   [8]  00 00 00 00 00 00 00 00
  can0  001   [5]  1D F1 06 00 01
  can0  001   [5]  1D F2 03 00 00
  can0  000   [8]  00 00 00 00 00 00 00 00
  can0  000   [8]  00 00 00 00 00 00 00 00
  can0  4CA   [8]  00 01 01 00 00 00 00 00
  can0  000   [8]  00 00 00 00 00 00 00 00
  can0  4CA   [8]  01 01 01 00 00 00 00 00
  can0  001   [5]  1D F7 05 00 00
  can0  000   [8]  00 00 00 00 00 00 00 00
  can0  000   [8]  00 00 00 00 00 00 00 00
  can0  4CA   [8]  02 01 01 00 00 00 00 00
  can0  000   [8]  00 00 00 00 00 00 00 00
  can0  4CA   [8]  03 01 00 00 00 00 00 00
  can0  000   [8]  00 00 00 00 00 00 00 00
  can0  4CA   [8]  04 01 00 00 00 00 00 00
  can0  000   [8]  00 00 00 00 00 00 00 00
  can0  000   [8]  00 00 00 00 00 00 00 00
  can0  000   [8]  00 00 00 00 00 00 00 00
  can0  000   [8]  00 00 00 00 00 00 00 00
  can0  000   [8]  00 00 00 00 00 00 00 00
  can0  4CA   [8]  05 01 02 01 00 00 00 00
  can0  000   [8]  00 00 00 00 00 00 00 00
  can0  000   [8]  00 00 00 00 00 00 00 00
  can0  001   [5]  1D F7 05 00 00
  can0  000   [8]  00 00 00 00 00 00 00 00
  can0  000   [8]  00 00 00 00 00 00 00 00
  can0  001   [5]  1D F8 01 00 00
  can0  000   [8]  00 00 00 00 00 00 00 00
  can0  001   [5]  1D F7 03 00 00
  can0  000   [8]  00 00 00 00 00 00 00 00
  can0  000   [8]  00 00 00 00 00 00 00 00
  can0  001   [5]  1D F2 07 00 00
  can0  000   [8]  00 00 00 00 00 00 00 00
  can0  001   [5]  1D F1 04 00 01
  can0  001   [5]  1D F1 00 00 00
  can0  000   [8]  00 00 00 00 00 00 00 00
  can0  000   [8]  00 00 00 00 00 00 00 00
  can0  000   [8]  00 00 00 00 00 00 00 00
  can0  001   [5]  1D F9 01 00 00
  can0  000   [8]  00 00 00 00 00 00 00 00
  can0  001   [5]  1D F1 06 00 01
  can0  001   [5]  1D F2 03 00 00
  can0  000   [8]  00 00 00 00 00 00 00 00
  can0  001   [5]  1D F7 05 00 00
  can0  000   [8]  00 00 00 00 00 00 00 00
  can0  4CA   [8]  00 01 01 00 00 00 00 00
  can0  000   [8]  00 00 00 00 00 00 00 00
  can0  4CA   [8]  01 01 01 00 00 00 00 00
  can0  000   [8]  00 00 00 00 00 00 00 00
  can0  000   [8]  00 00 00 00 00 00 00 00
  can0  4CA   [8]  02 01 01 00 00 00 00 00
  can0  000   [8]  00 00 00 00 00 00 00 00
  can0  4CA   [8]  03 01 00 00 00 00 00 00
  can0  000   [8]  00 00 00 00 00 00 00 00
  can0  000   [8]  00 00 00 00 00 00 00 00
  can0  4CA   [8]  04 01 00 00 00 00 00 00
  can0  080   [8]  1D 01 01 00 00 00 00 00
  can0  060   [8]  01 00 00 00 00 00 00 00
  can0  000   [8]  00 00 00 00 00 00 00 00
  can0  080   [8]  1D 02 30 00 48 92 24 08
  can0  060   [8]  01 00 00 00 00 00 00 00
  can0  000   [8]  00 00 00 00 00 00 00 00
  can0  080   [8]  1D 03 00 00 03 00 07 83
  can0  060   [8]  01 00 00 00 00 00 00 00
  can0  000   [8]  00 00 00 00 00 00 00 00
  can0  080   [8]  1D 04 36 36 00 00 D3 00
  can0  060   [8]  01 00 00 00 00 00 00 00
  can0  000   [8]  00 00 00 00 00 00 00 00
  can0  4CA   [8]  05 01 02 01 00 00 00 00
  can0  080   [8]  1D 05 00 00 00 00 00 00
  can0  060   [8]  01 00 00 00 00 00 00 00
  can0  001   [5]  1D F7 05 00 00
  can0  000   [8]  00 00 00 00 00 00 00 00
  can0  080   [8]  1D 06 02 00 00 00 02 00
  can0  060   [8]  01 00 00 00 00 00 00 00
  can0  000   [8]  00 00 00 00 00 00 00 00
  can0  080   [8]  1D 07 00 00 06 B6 99 00
  can0  060   [8]  01 00 00 00 00 00 00 00
  can0  000   [8]  00 00 00 00 00 00 00 00
  can0  080   [8]  1D 08 0F 0F 1F 1F 00 00
  can0  060   [8]  01 00 00 00 00 00 00 00
  can0  000   [8]  00 00 00 00 00 00 00 00
  can0  001   [5]  1D F8 01 00 00
  can0  081   [5]  1D F8 01 00 00
  can0  080   [8]  1D 09 10 02 1B 02 0B 00
  can0  060   [8]  01 00 00 00 00 00 00 00
  can0  000   [8]  00 00 00 00 00 00 00 00
  can0  080   [8]  1D 0A 00 00 00 00 36 03
  can0  060   [8]  01 00 00 00 00 00 00 00
  can0  001   [5]  1D F7 03 00 00
  can0  081   [5]  1D F7 03 00 00
  can0  000   [8]  00 00 00 00 00 00 00 00
  can0  080   [8]  1D 01 10 00 00 81 00 00
  can0  060   [8]  01 00 00 00 00 00 00 00
  can0  000   [8]  00 00 00 00 00 00 00 00
  can0  001   [5]  1D F2 07 00 00
  can0  081   [5]  1D F2 07 00 00
  can0  080   [8]  1D 02 30 20 4A 92 24 49
  can0  060   [8]  01 00 00 00 00 00 00 00
  can0  000   [8]  00 00 00 00 00 00 00 00
  can0  001   [5]  1D F1 04 00 01
  can0  001   [5]  1D F1 00 00 00
  can0  081   [5]  1D F1 04 00 01
  can0  081   [5]  1D F1 00 00 00
  can0  080   [8]  1D 03 00 00 03 00 07 83
  can0  060   [8]  01 00 00 00 00 00 00 00
  can0  000   [8]  00 00 00 00 00 00 00 00
  can0  080   [8]  1D 04 66 63 00 00 D3 00
  can0  060   [8]  01 00 00 00 00 00 00 00
  can0  000   [8]  00 00 00 00 00 00 00 00
  can0  080   [8]  1D 05 00 00 00 00 00 00
  can0  060   [8]  01 00 00 00 00 00 00 00
  can0  000   [8]  00 00 00 00 00 00 00 00
